Freq.	V(v_output)
1.00000000000000e-03	(-1.19975520970740e+02dB,1.79884550507125e+02°)
1.25892541179417e-03	(-1.15975526103501e+02dB,1.79854657728204e+02°)
1.58489319246111e-03	(-1.11975534238373e+02dB,1.79817024977618e+02°)
1.99526231496888e-03	(-1.07975547131260e+02dB,1.79769648208309e+02°)
2.51188643150958e-03	(-1.03975567565071e+02dB,1.79710004502668e+02°)
3.16227766016838e-03	(-9.99755999503799e+01dB,1.79634917751787e+02°)
3.98107170553497e-03	(-9.59756512773881e+01dB,1.79540389583547e+02°)
5.01187233627272e-03	(-9.19757326245927e+01dB,1.79421386569341e+02°)
6.30957344480194e-03	(-8.79758615496628e+01dB,1.79271572444226e+02°)
7.94328234724282e-03	(-8.39760658782091e+01dB,1.79082971213561e+02°)
1.00000000000000e-02	(-7.99763897072854e+01dB,1.78845543471245e+02°)
1.25892541179417e-02	(-7.59769029170550e+01dB,1.78546653897354e+02°)
1.58489319246111e-02	(-7.19777162376165e+01dB,1.78170402635155e+02°)
1.99526231496888e-02	(-6.79790051078588e+01dB,1.77696787049421e+02°)
2.51188643150958e-02	(-6.39810474378557e+01dB,1.77100653427801e+02°)
3.16227766016838e-02	(-5.99842833294140e+01dB,1.76350391163626e+02°)
3.98107170553498e-02	(-5.59894094038235e+01dB,1.75406316511035e+02°)
5.01187233627273e-02	(-5.19975274925273e+01dB,1.74218692840340e+02°)
6.30957344480194e-02	(-4.80103782742440e+01dB,1.72725347230161e+02°)
7.94328234724282e-02	(-4.40307065250927e+01dB,1.70848884885247e+02°)
1.00000000000000e-01	(-4.00628274936378e+01dB,1.68493603619131e+02°)
1.25892541179417e-01	(-3.61134937228436e+01dB,1.65542426605808e+02°)
1.58489319246112e-01	(-3.21931937589760e+01dB,1.61854599428229e+02°)
1.99526231496888e-01	(-2.83180306315446e+01dB,1.57265683140876e+02°)
2.51188643150958e-01	(-2.45122803514328e+01dB,1.51592678561943e+02°)
3.16227766016838e-01	(-2.08115143117755e+01dB,1.44648925263392e+02°)
3.98107170553498e-01	(-1.72656123190263e+01dB,1.36275000109283e+02°)
5.01187233627273e-01	(-1.39399524867874e+01dB,1.26390717667633e+02°)
6.30957344480194e-01	(-1.09118185267984e+01dB,1.15064695192606e+02°)
7.94328234724283e-01	(-8.25898680217721e+00dB,1.02578153523286e+02°)
1.00000000000000e+00	(-6.04083376198314e+00dB,8.94377927125126e+01°)
1.25892541179417e+00	(-4.27917315878618e+00dB,7.62984248136575e+01°)
1.58489319246112e+00	(-2.95022474231978e+00dB,6.38103750247518e+01°)
1.99526231496888e+00	(-1.99334371366591e+00dB,5.24688625773579e+01°)
2.51188643150959e+00	(-1.33041353142406e+00dB,4.25407606152382e+01°)
3.16227766016839e+00	(-8.84503276270786e-01dB,3.40805867742641e+01°)
3.98107170553498e+00	(-5.90897420792596e-01dB,2.69950893055813e+01°)
5.01187233627273e+00	(-4.00401813751741e-01dB,2.11119056124753e+01°)
6.30957344480195e+00	(-2.78017424306407e-01dB,1.62300122361064e+01°)
7.94328234724283e+00	(-1.99895315254356e-01dB,1.21490141299010e+01°)
1.00000000000000e+01	(-1.50230914675929e-01dB,8.68249654741529e+00°)
1.25892541179417e+01	(-1.18736420324553e-01dB,5.66155828221744e+00°)
1.58489319246112e+01	(-9.87928281581205e-02dB,2.93298924756407e+00°)
1.99526231496888e+01	(-8.61788484331634e-02dB,3.54715875946597e-01°)
2.51188643150959e+01	(-7.82343973728895e-02dB,-2.21021921873214e+00°)
3.16227766016839e+01	(-7.33430786523001e-02dB,-4.90078053579653e+00°)
3.98107170553498e+01	(-7.06727215212945e-02dB,-7.86646098636445e+00°)
5.01187233627274e+01	(-7.01989473031477e-02dB,-1.12781236589910e+01°)
6.30957344480195e+01	(-7.32001750365416e-02dB,-1.53428544071314e+01°)
7.94328234724284e+01	(-8.37759071973930e-02dB,-2.03254065189015e+01°)
1.00000000000000e+02	(-1.12780229315866e-01dB,-2.65789463045948e+01°)
1.25892541179417e+02	(-1.87378043877861e-01dB,-3.45827983669843e+01°)
1.58489319246112e+02	(-3.72381170966827e-01dB,-4.49588918984933e+01°)
1.99526231496889e+02	(-8.08986991668958e-01dB,-5.83531258557651e+01°)
2.51188643150959e+02	(-1.74885891734572e+00dB,-7.49293813240662e+01°)
3.16227766016839e+02	(-3.48223528914825e+00dB,-9.34840415205700e+01°)
3.98107170553499e+02	(-6.10306453731273e+00dB,-1.11456358148772e+02°)
5.01187233627274e+02	(-9.40652518572773e+00dB,-1.26706150137994e+02°)
6.30957344480195e+02	(-1.30969730283461e+01dB,-1.38682930756976e+02°)
7.94328234724284e+02	(-1.69687154974859e+01dB,-1.47838899264116e+02°)
1.00000000000000e+03	(-2.09174704842352e+01dB,-1.54833760515614e+02°)
1.25892541179417e+03	(-2.48974631632329e+01dB,-1.60221487211548e+02°)
1.58489319246112e+03	(-2.88898285464133e+01dB,-1.64409537556400e+02°)
1.99526231496889e+03	(-3.28870106344377e+01dB,-1.67690184913143e+02°)
2.51188643150959e+03	(-3.68860310003078e+01dB,-1.70275473954871e+02°)
3.16227766016839e+03	(-4.08857318896145e+01dB,-1.72322589121517e+02°)
3.98107170553499e+03	(-4.48856716237824e+01dB,-1.73950567158667e+02°)
5.01187233627274e+03	(-4.88856870119431e+01dB,-1.75251201033409e+02°)
6.30957344480196e+03	(-5.28857215817910e+01dB,-1.76296332273727e+02°)
7.94328234724285e+03	(-5.68857589907708e+01dB,-1.77142917304952e+02°)
1.00000000000000e+04	(-6.08857978370352e+01dB,-1.77836693349409e+02°)
1.25892541179417e+04	(-6.48858427328812e+01dB,-1.78414934654323e+02°)
1.58489319246112e+04	(-6.88859018670386e+01dB,-1.78908599170323e+02°)
1.99526231496889e+04	(-7.28859874052954e+01dB,-1.79344058453525e+02°)
2.51188643150959e+04	(-7.68861175719786e+01dB,-1.79744542694560e+02°)
3.16227766016839e+04	(-8.08863203660554e+01dB,1.79868602172766e+02°)
3.98107170553499e+04	(-8.48866395159258e+01dB,1.79474768457088e+02°)
5.01187233627275e+04	(-8.88871438774454e+01dB,1.79052986177654e+02°)
6.30957344480196e+04	(-9.28879422666430e+01dB,1.78580807874810e+02°)
7.94328234724285e+04	(-9.68892069016257e+01dB,1.78033120137258e+02°)
1.00000000000000e+05	(-1.00891210471726e+02dB,1.77380821989707e+02°)
1.25892541179417e+05	(-1.04894384740644e+02dB,1.76589307557039e+02°)
1.58489319246112e+05	(-1.08899413100016e+02dB,1.75616688185275e+02°)
1.99526231496889e+05	(-1.12907376469301e+02dB,1.74411691300562e+02°)
2.51188643150959e+05	(-1.16919982581351e+02dB,1.72911187453645e+02°)
3.16227766016840e+05	(-1.20939924525642e+02dB,1.71037338578092e+02°)
3.98107170553499e+05	(-1.24971436969689e+02dB,1.68694459111211e+02°)
5.01187233627275e+05	(-1.29021148055522e+02dB,1.65765892080833e+02°)
6.30957344480197e+05	(-1.33099357257228e+02dB,1.62111619211865e+02°)
7.94328234724286e+05	(-1.37221887366055e+02dB,1.57568091657440e+02°)
1.00000000000001e+06	(-1.41412615652682e+02dB,1.51953047673815e+02°)
1.25892541179417e+06	(-1.45706583460667e+02dB,1.45079877669506e+02°)
1.58489319246112e+06	(-1.50153045212655e+02dB,1.36787723204764e+02°)
1.99526231496889e+06	(-1.54816798050330e+02dB,1.26992576053388e+02°)
2.51188643150959e+06	(-1.59774878793138e+02dB,1.15756440425380e+02°)
3.16227766016840e+06	(-1.65105541178540e+02dB,1.03352268245176e+02°)
3.98107170553500e+06	(-1.70869622243454e+02dB,9.02801422766259e+01°)
5.01187233627275e+06	(-1.77091207990126e+02dB,7.71941317750629e+01°)
6.30957344480197e+06	(-1.83749008772490e+02dB,6.47517935687825e+01°)
7.94328234724286e+06	(-1.90784543866174e+02dB,5.34617928222836e+01°)
1.00000000000001e+07	(-1.98121518540851e+02dB,4.36068031178178e+01°)
1.25892541179418e+07	(-2.05685038931879e+02dB,3.52565945681781e+01°)
1.58489319246112e+07	(-2.13413544541811e+02dB,2.83319507594842e+01°)
1.99526231496889e+07	(-2.21263259515109e+02dB,2.26742790898401e+01°)
2.51188643150960e+07	(-2.29208436860853e+02dB,1.80976261718113e+01°)
3.16227766016840e+07	(-2.37240787928121e+02dB,1.44195853060386e+01°)
3.98107170553500e+07	(-2.45370670709784e+02dB,1.14762064463502e+01°)
5.01187233627276e+07	(-2.53632580974497e+02dB,9.12713386195479e+00°)
6.30957344480197e+07	(-2.62099636598898e+02dB,7.25561340331531e+00°)
7.94328234724287e+07	(-2.70920022795499e+02dB,5.76620350893079e+00°)
1.00000000000001e+08	(-2.80421862304292e+02dB,4.58172241937660e+00°)
1.25892541179418e+08	(-2.91526144242809e+02dB,3.64018783962156e+00°)
1.58489319246112e+08	(-3.09479953600974e+02dB,2.89232056037129e+00°)
1.99526231496889e+08	(-3.09865535792842e+02dB,-1.77703123022840e+02°)
2.51188643150960e+08	(-3.07640901792700e+02dB,-1.78175313657941e+02°)
3.16227766016840e+08	(-3.09210485711501e+02dB,-1.78550532345634e+02°)
3.98107170553500e+08	(-3.11966189774288e+02dB,-1.78848616847570e+02°)
5.01187233627276e+08	(-3.15263841712845e+02dB,-1.79085409527289e+02°)
6.30957344480198e+08	(-3.18848212351748e+02dB,-1.79273507963794e+02°)
7.94328234724287e+08	(-3.22595835870663e+02dB,-1.79422923403201e+02°)
1.00000000000000e+09	(-3.26440285628221e+02dB,-1.79541610045317e+02°)
